EC-Lab ASCII FILE
Nb header lines : 63                          

Potentio Electrochemical Impedance Spectroscopy

Run on channel : 2 (SN 52159)
User : 
CE vs. WE compliance from -10 V to 10 V
Electrode connection : standard
Potential control : Ewe
Ewe ctrl range : min = -10.00 V, max = 10.00 V
Safety Limits :
	Do not start on E overload
Acquisition started on : 10/12/2023 10:00:32.686
Loaded Setting File :  NONE
Saved on :
	File : AKS-31_Uncompressed__T-Cell_C6_PVDF_94_6_10mM_TBACLO4_EC_EMC_3_7_317_200kHz-10mHz_10mV_Cell2_C01_C02.mpr
	Directory : D:\Abhishek\T-Cell_AKS31_2023_10_12\
	Host : 192.168.0.10
Device : VSP-3e (SN .003361)
Address : 192.168.0.1
EC-Lab for windows v11.50 (software)
Internet server v11.50 (firmware)
Command interpretor v11.50 (firmware)
Electrode material : 
Initial state : 
Electrolyte : 
Comments : 
Electrode surface area : 0.001 cm²
Characteristic mass : 0.001 g
Equivalent Weight : 0.000 g/eq.
Density : 0.000 g/cm3
Volume (V) : 0.001 cm³
Cycle Definition : Charge/Discharge alternance
Mode                Single sine         
E (V)               0.0000              
vs.                 Eoc                 
tE (h:m:s)          0:00:0.0000         
record              0                   
dI                  0.000               
unit dI             mA                  
dt (s)              0.000               
fi                  200.000             
unit fi             kHz                 
ff                  10.000              
unit ff             mHz                 
Nd                  10                  
Points              per decade          
spacing             Logarithmic         
Va (mV)             10.0                
pw                  3.00                
Na                  5                   
corr                0                   
E range min (V)     -10.000             
E range max (V)     10.000              
I Range             Auto                
Bandwidth           5                   
nc cycles           0                   
goto Ns'            0                   
nr cycles           0                   
inc. cycle          0                   

freq/Hz	Re(Z)/Ohm	-Im(Z)/Ohm	|Z|/Ohm	Phase(Z)/deg	time/s	<Ewe>/V	<I>/mA	Cs/µF	Cp/µF	cycle number	I Range	|Ewe|/V	|I|/A	Ns	(Q-Qo)/mA.h	Re(Y)/Ohm-1	Im(Y)/Ohm-1	|Y|/Ohm-1	Phase(Y)/deg	Re(C)/nF	Im(C)/nF	|C|/nF	Phase(C)/deg	Re(M)	Im(M)	|M|	Phase(M)/deg	Re(Permittivity)	Im(Permittivity)	|Permittivity|	Phase(Permittivity)/deg	Re(Resistivity)/Ohm.cm	Im(Resistivity)/Ohm.cm	|Resistivity|/Ohm.cm	Phase(Resistivity)/deg	Re(Conductivity)/mS/cm	Im(Conductivity)/mS/cm	|Conductivity|/mS/cm	Phase(Conductivity)/deg	Tan(Delta)	Loss Angle(Delta)/deg	dq/mA.h	
1.9999814E+005	5.2532803E+001	1.7365745E+000	5.2561497E+001	-1.8933346E+000	3.008482622884912E+000	4.0146089E-003	8.9341012E-004	4.5824820E-001	5.0020975E-004	1.000000000000000E+000	11	9.8885121E-003	1.8813224E-004	0	2.189858596757404E-007	1.9014947E-002	6.2857626E-004	1.9025333E-002	1.8933346E+000	5.0020939E-001	1.5131754E+001	1.5140019E+001	-8.8106667E+001	0.0000000E+000	0.0000000E+000	0.0000000E+000	8.8106667E+001	0.0000000E+000	0.0000000E+000	0.0000000E+000	-8.8106667E+001	0.0000000E+000	0.0000000E+000	0.0000000E+000	-1.8933346E+000	0.0000000E+000	0.0000000E+000	0.0000000E+000	1.8933346E+000	3.0250820E+001	8.8106667E+001	2.189858596757404E-007
1.5885727E+005	5.2866989E+001	2.5338240E+000	5.2927673E+001	-2.7439885E+000	4.142477770074038E+000	4.0361043E-003	9.1744488E-004	3.9539996E-001	9.0619962E-004	1.000000000000000E+000	11	1.0329726E-002	1.9516682E-004	0	5.510025192238067E-007	1.8872045E-002	9.0450468E-004	1.8893708E-002	2.7439885E+000	9.0619951E-001	1.8907410E+001	1.8929113E+001	-8.7256012E+001	0.0000000E+000	0.0000000E+000	0.0000000E+000	8.7256012E+001	0.0000000E+000	0.0000000E+000	0.0000000E+000	-8.7256012E+001	0.0000000E+000	0.0000000E+000	0.0000000E+000	-2.7439885E+000	0.0000000E+000	0.0000000E+000	0.0000000E+000	2.7439885E+000	2.0864508E+001	8.7256012E+001	3.320166595480664E-007
1.2618765E+005	5.3318214E+001	3.2304196E+000	5.3415985E+001	-3.4671721E+000	5.275496357207885E+000	4.0351162E-003	1.0119063E-003	3.9043105E-001	1.4279722E-003	1.000000000000000E+000	11	1.0356878E-002	1.9389098E-004	0	1.030738532994292E-006	1.8686721E-002	1.1321825E-003	1.8720988E-002	3.4671721E+000	1.4279715E+000	2.3568741E+001	2.3611959E+001	-8.6532829E+001	0.0000000E+000	0.0000000E+000	0.0000000E+000	8.6532829E+001	0.0000000E+000	0.0000000E+000	0.0000000E+000	-8.6532829E+001	0.0000000E+000	0.0000000E+000	0.0000000E+000	-3.4671721E+000	0.0000000E+000	0.0000000E+000	0.0000000E+000	3.4671721E+000	1.6505043E+001	8.6532829E+001	4.797360137704850E-007
1.0022640E+005	5.3853672E+001	3.9277713E+000	5.3996716E+001	-4.1714325E+000	6.409485504409531E+000	4.0346687E-003	8.8334916E-004	4.0428889E-001	2.1391907E-003	1.000000000000000E+000	11	1.0323895E-002	1.9119488E-004	0	1.222464400892527E-006	1.8470585E-002	1.3471362E-003	1.8519646E-002	4.1714325E+000	2.1391907E+000	2.9330444E+001	2.9408350E+001	-8.5828568E+001	0.0000000E+000	0.0000000E+000	0.0000000E+000	8.5828568E+001	0.0000000E+000	0.0000000E+000	0.0000000E+000	-8.5828568E+001	0.0000000E+000	0.0000000E+000	0.0000000E+000	-4.1714325E+000	0.0000000E+000	0.0000000E+000	0.0000000E+000	4.1714325E+000	1.3710999E+001	8.5828568E+001	1.917258678982358E-007
7.9609563E+004	5.4492207E+001	4.5431767E+000	5.4681267E+001	-4.7658963E+000	7.542492704902543E+000	4.0435800E-003	9.2899613E-004	4.4004315E-001	3.0376476E-003	1.000000000000000E+000	11	1.0286821E-002	1.8812332E-004	0	1.310669428411428E-006	1.8224569E-002	1.5194361E-003	1.8287798E-002	4.7658963E+000	3.0376496E+000	3.6434444E+001	3.6560856E+001	-8.5234100E+001	0.0000000E+000	0.0000000E+000	0.0000000E+000	8.5234100E+001	0.0000000E+000	0.0000000E+000	0.0000000E+000	-8.5234100E+001	0.0000000E+000	0.0000000E+000	0.0000000E+000	-4.7658963E+000	0.0000000E+000	0.0000000E+000	0.0000000E+000	4.7658963E+000	1.1994296E+001	8.5234100E+001	8.820502751890062E-008
6.3233004E+004	5.5254261E+001	5.1856198E+000	5.5497063E+001	-5.3615122E+000	8.676486438751454E+000	4.0296726E-003	8.3621143E-004	4.8537302E-001	4.2377664E-003	1.000000000000000E+000	11	1.0290411E-002	1.8542263E-004	0	1.715436603178003E-006	1.7940138E-002	1.6836844E-003	1.8018972E-002	5.3615122E+000	4.2377658E+000	4.5154613E+001	4.5353035E+001	-8.4638489E+001	0.0000000E+000	0.0000000E+000	0.0000000E+000	8.4638489E+001	0.0000000E+000	0.0000000E+000	0.0000000E+000	-8.4638489E+001	0.0000000E+000	0.0000000E+000	0.0000000E+000	-5.3615122E+000	0.0000000E+000	0.0000000E+000	0.0000000E+000	5.3615122E+000	1.0655286E+001	8.4638489E+001	4.047671747665744E-007
5.0224539E+004	5.6067486E+001	5.7425170E+000	5.6360798E+001	-5.8479290E+000	9.809490652551176E+000	4.0337550E-003	9.4930432E-004	5.5182564E-001	5.7286485E-003	1.000000000000000E+000	11	1.0295790E-002	1.8267643E-004	0	2.196828731380972E-006	1.7650492E-002	1.8077902E-003	1.7742829E-002	5.8479290E+000	5.7286506E+000	5.5932083E+001	5.6224686E+001	-8.4152069E+001	0.0000000E+000	0.0000000E+000	0.0000000E+000	8.4152069E+001	0.0000000E+000	0.0000000E+000	0.0000000E+000	-8.4152069E+001	0.0000000E+000	0.0000000E+000	0.0000000E+000	-5.8479290E+000	0.0000000E+000	0.0000000E+000	0.0000000E+000	5.8479290E+000	9.7635736E+000	8.4152069E+001	4.813921282029696E-007
3.9897566E+004	5.7058681E+001	6.2829380E+000	5.7403557E+001	-6.2837305E+000	1.094247185302083E+001	4.0322449E-003	9.7240717E-004	6.3490820E-001	7.6060453E-003	1.000000000000000E+000	11	1.0282804E-002	1.7913184E-004	0	2.511340623420741E-006	1.7315861E-002	1.9067122E-003	1.7420523E-002	6.2837305E+000	7.6060438E+000	6.9074516E+001	6.9492020E+001	-8.3716270E+001	0.0000000E+000	0.0000000E+000	0.0000000E+000	8.3716270E+001	0.0000000E+000	0.0000000E+000	0.0000000E+000	-8.3716270E+001	0.0000000E+000	0.0000000E+000	0.0000000E+000	-6.2837305E+000	0.0000000E+000	0.0000000E+000	0.0000000E+000	6.2837305E+000	9.0815287E+000	8.3716270E+001	3.145118920397687E-007
3.1686090E+004	5.8145332E+001	6.8362846E+000	5.8545834E+001	-6.7056160E+000	1.207547492018784E+001	4.0402054E-003	1.0050121E-003	7.3473603E-001	1.0017968E-002	1.000000000000000E+000	11	1.0230444E-002	1.7474248E-004	0	2.917823539081736E-006	1.6963789E-002	1.9944729E-003	1.7080635E-002	6.7056160E+000	1.0017962E+001	8.5206818E+001	8.5793716E+001	-8.3294388E+001	0.0000000E+000	0.0000000E+000	0.0000000E+000	8.3294388E+001	0.0000000E+000	0.0000000E+000	0.0000000E+000	-8.3294388E+001	0.0000000E+000	0.0000000E+000	0.0000000E+000	-6.7056160E+000	0.0000000E+000	0.0000000E+000	0.0000000E+000	6.7056160E+000	8.5053997E+000	8.3294388E+001	4.064829156609955E-007
2.5172580E+004	5.9351166E+001	7.2696128E+000	5.9794716E+001	-6.9830770E+000	1.320847372067510E+001	4.0363837E-003	9.7147515E-004	8.6972338E-001	1.2855177E-002	1.000000000000000E+000	11	1.0189150E-002	1.7040217E-004	0	3.492416950290337E-006	1.6599830E-002	2.0332262E-003	1.6723886E-002	6.9830770E+000	1.2855179E+001	1.0495329E+002	1.0573763E+002	-8.3016922E+001	0.0000000E+000	0.0000000E+000	0.0000000E+000	8.3016922E+001	0.0000000E+000	0.0000000E+000	0.0000000E+000	-8.3016922E+001	0.0000000E+000	0.0000000E+000	0.0000000E+000	-6.9830770E+000	0.0000000E+000	0.0000000E+000	0.0000000E+000	6.9830770E+000	8.1642818E+000	8.3016922E+001	5.745934112086008E-007
1.9995176E+004	6.0741131E+001	7.5917845E+000	6.1213726E+001	-7.1242204E+000	1.434148764118436E+001	4.0534604E-003	8.7384623E-004	1.0484580E+000	1.6126538E-002	1.000000000000000E+000	11	1.0150046E-002	1.6581324E-004	0	3.891155399645666E-006	1.6210083E-002	2.0260315E-003	1.6336204E-002	7.1242204E+000	1.6126541E+001	1.2902687E+002	1.3003076E+002	-8.2875778E+001	0.0000000E+000	0.0000000E+000	0.0000000E+000	8.2875778E+001	0.0000000E+000	0.0000000E+000	0.0000000E+000	-8.2875778E+001	0.0000000E+000	0.0000000E+000	0.0000000E+000	-7.1242204E+000	0.0000000E+000	0.0000000E+000	0.0000000E+000	7.1242204E+000	8.0009031E+000	8.2875778E+001	3.987384493553288E-007
1.5884798E+004	6.2049568E+001	7.7944522E+000	6.2537209E+001	-7.1597953E+000	1.547448390829959E+001	4.0242099E-003	7.5926242E-004	1.2854431E+000	1.9968575E-002	1.000000000000000E+000	11	1.0119885E-002	1.6182182E-004	0	4.535890445649784E-006	1.5865793E-002	1.9930061E-003	1.5990481E-002	7.1597953E+000	1.9968582E+001	1.5896454E+002	1.6021382E+002	-8.2840202E+001	0.0000000E+000	0.0000000E+000	0.0000000E+000	8.2840202E+001	0.0000000E+000	0.0000000E+000	0.0000000E+000	-8.2840202E+001	0.0000000E+000	0.0000000E+000	0.0000000E+000	-7.1597953E+000	0.0000000E+000	0.0000000E+000	0.0000000E+000	7.1597953E+000	7.9607348E+000	8.2840202E+001	6.447350460041177E-007
1.2618766E+004	6.3444122E+001	7.7704716E+000	6.3918205E+001	-6.9826622E+000	1.647149115565117E+001	4.0258504E-003	8.3080737E-004	1.6231396E+000	2.3988413E-002	1.000000000000000E+000	11	1.0755173E-002	1.6826463E-004	0	4.749691290883826E-006	1.5528956E-002	1.9019464E-003	1.5644995E-002	6.9826622E+000	2.3988424E+001	1.9585989E+002	1.9732344E+002	-8.3017334E+001	0.0000000E+000	0.0000000E+000	0.0000000E+000	8.3017334E+001	0.0000000E+000	0.0000000E+000	0.0000000E+000	-8.3017334E+001	0.0000000E+000	0.0000000E+000	0.0000000E+000	-6.9826622E+000	0.0000000E+000	0.0000000E+000	0.0000000E+000	6.9826622E+000	8.1647711E+000	8.3017334E+001	2.138008452340428E-007
1.0020785E+004	6.4783981E+001	7.7104955E+000	6.5241211E+001	-6.7873325E+000	1.760447520946036E+001	4.0353024E-003	9.0421457E-004	2.0598524E+000	2.8771112E-002	1.000000000000000E+000	11	1.0129280E-002	1.5525892E-004	0	5.069971178341398E-006	1.5220313E-002	1.8114996E-003	1.5327735E-002	6.7873325E+000	2.8771105E+001	2.4173636E+002	2.4344249E+002	-8.3212669E+001	0.0000000E+000	0.0000000E+000	0.0000000E+000	8.3212669E+001	0.0000000E+000	0.0000000E+000	0.0000000E+000	-8.3212669E+001	0.0000000E+000	0.0000000E+000	0.0000000E+000	-6.7873325E+000	0.0000000E+000	0.0000000E+000	0.0000000E+000	6.7873325E+000	8.4020519E+000	8.3212669E+001	3.202798874575720E-007
7.9597607E+003	6.5826050E+001	7.7104721E+000	6.6276093E+001	-6.6808434E+000	1.875873553100973E+001	4.0340722E-003	8.2857074E-004	2.5932188E+000	3.5098396E-002	1.000000000000000E+000	11	1.0352056E-002	1.5619594E-004	0	5.463404658397647E-006	1.4985940E-002	1.7553640E-003	1.5088397E-002	6.6808434E+000	3.5098419E+001	2.9964297E+002	3.0169159E+002	-8.3319153E+001	0.0000000E+000	0.0000000E+000	0.0000000E+000	8.3319153E+001	0.0000000E+000	0.0000000E+000	0.0000000E+000	-8.3319153E+001	0.0000000E+000	0.0000000E+000	0.0000000E+000	-6.6808434E+000	0.0000000E+000	0.0000000E+000	0.0000000E+000	6.6808434E+000	8.5372267E+000	8.3319153E+001	3.934334800562487E-007
6.3238188E+003	6.7132355E+001	7.2269735E+000	6.7520233E+001	-6.1443777E+000	2.017027746469830E+001	4.0514097E-003	9.1278518E-004	3.4824448E+000	3.9895996E-002	1.000000000000000E+000	11	1.0523309E-002	1.5585416E-004	0	6.007021304362954E-006	1.4725294E-002	1.5852165E-003	1.4810375E-002	6.1443777E+000	3.9896000E+001	3.7059940E+002	3.7274066E+002	-8.3855621E+001	0.0000000E+000	0.0000000E+000	0.0000000E+000	8.3855621E+001	0.0000000E+000	0.0000000E+000	0.0000000E+000	-8.3855621E+001	0.0000000E+000	0.0000000E+000	0.0000000E+000	-6.1443777E+000	0.0000000E+000	0.0000000E+000	0.0000000E+000	6.1443777E+000	9.2891378E+000	8.3855621E+001	5.436166459653070E-007
5.0216069E+003	6.8169281E+001	6.9958692E+000	6.8527313E+001	-5.8594637E+000	2.187369010563270E+001	4.0923865E-003	1.7610763E-003	4.5303912E+000	4.7216270E-002	1.000000000000000E+000	11	1.0609581E-002	1.5482266E-004	0	6.957767706927067E-006	1.4516478E-002	1.4897529E-003	1.4592721E-002	5.8594637E+000	4.7216297E+001	4.6008569E+002	4.6250214E+002	-8.4140533E+001	0.0000000E+000	0.0000000E+000	0.0000000E+000	8.4140533E+001	0.0000000E+000	0.0000000E+000	0.0000000E+000	-8.4140533E+001	0.0000000E+000	0.0000000E+000	0.0000000E+000	-5.8594637E+000	0.0000000E+000	0.0000000E+000	0.0000000E+000	5.8594637E+000	9.7442188E+000	8.4140533E+001	9.507464025641134E-007
3.9861731E+003	6.9106422E+001	6.8039341E+000	6.9440559E+001	-5.6229844E+000	2.357693215983454E+001	4.1054366E-003	1.7653615E-003	5.8681860E+000	5.6337513E-002	1.000000000000000E+000	11	1.0658749E-002	1.5349458E-004	0	7.653809050213669E-006	1.4331511E-002	1.4110216E-003	1.4400805E-002	5.6229844E+000	5.6337521E+001	5.7221069E+002	5.7497736E+002	-8.4377014E+001	0.0000000E+000	0.0000000E+000	0.0000000E+000	8.4377014E+001	0.0000000E+000	0.0000000E+000	0.0000000E+000	-8.4377014E+001	0.0000000E+000	0.0000000E+000	0.0000000E+000	-5.6229844E+000	0.0000000E+000	0.0000000E+000	0.0000000E+000	5.6229844E+000	1.0156833E+001	8.4377014E+001	6.960413432866016E-007
3.1669595E+003	6.9991539E+001	6.5749645E+000	7.0299683E+001	-5.3665833E+000	2.527895949402591E+001	4.0980540E-003	1.6936301E-003	7.6433578E+000	6.6859677E-002	1.000000000000000E+000	11	1.0693286E-002	1.5211002E-004	0	8.558891298678646E-006	1.4162463E-002	1.3304136E-003	1.4224815E-002	5.3665833E+000	6.6859703E+001	7.1173193E+002	7.1486542E+002	-8.4633415E+001	0.0000000E+000	0.0000000E+000	0.0000000E+000	8.4633415E+001	0.0000000E+000	0.0000000E+000	0.0000000E+000	-8.4633415E+001	0.0000000E+000	0.0000000E+000	0.0000000E+000	-5.3665833E+000	0.0000000E+000	0.0000000E+000	0.0000000E+000	5.3665833E+000	1.0645159E+001	8.4633415E+001	9.050822484649770E-007
2.5158047E+003	7.0775261E+001	6.4857202E+000	7.1071808E+001	-5.2358608E+000	2.697967749481904E+001	4.0943068E-003	1.7081625E-003	9.7540512E+000	8.1228174E-002	1.000000000000000E+000	11	1.0703029E-002	1.5059458E-004	0	9.496822390291425E-006	1.4011568E-002	1.2839955E-003	1.4070277E-002	5.2358608E+000	8.1228203E+001	8.8640039E+002	8.9011444E+002	-8.4764137E+001	0.0000000E+000	0.0000000E+000	0.0000000E+000	8.4764137E+001	0.0000000E+000	0.0000000E+000	0.0000000E+000	-8.4764137E+001	0.0000000E+000	0.0000000E+000	0.0000000E+000	-5.2358608E+000	0.0000000E+000	0.0000000E+000	0.0000000E+000	5.2358608E+000	1.0912476E+001	8.4764137E+001	9.379310916127794E-007
1.9980818E+003	7.1556480E+001	6.5315022E+000	7.1853951E+001	-5.2153683E+000	2.868295952238259E+001	4.0939339E-003	1.6908353E-003	1.2195336E+001	1.0076708E-001	1.000000000000000E+000	11	1.0713518E-002	1.4910131E-004	0	1.037597991376808E-005	1.3859503E-002	1.2650620E-003	1.3917119E-002	5.2153683E+000	1.0076711E+002	1.1039630E+003	1.1085524E+003	-8.4784630E+001	0.0000000E+000	0.0000000E+000	0.0000000E+000	8.4784630E+001	0.0000000E+000	0.0000000E+000	0.0000000E+000	-8.4784630E+001	0.0000000E+000	0.0000000E+000	0.0000000E+000	-5.2153683E+000	0.0000000E+000	0.0000000E+000	0.0000000E+000	5.2153683E+000	1.0955593E+001	8.4784630E+001	8.791575234766553E-007
1.5884750E+003	7.2323914E+001	6.5812664E+000	7.2622734E+001	-5.1994305E+000	3.038496997655602E+001	4.0985201E-003	1.6981018E-003	1.5224052E+001	1.2502706E-001	1.000000000000000E+000	11	1.0712896E-002	1.4751435E-004	0	1.123825658343978E-005	1.3713134E-002	1.2478555E-003	1.3769792E-002	5.1994305E+000	1.2502712E+002	1.3739675E+003	1.3796444E+003	-8.4800568E+001	0.0000000E+000	0.0000000E+000	0.0000000E+000	8.4800568E+001	0.0000000E+000	0.0000000E+000	0.0000000E+000	-8.4800568E+001	0.0000000E+000	0.0000000E+000	0.0000000E+000	-5.1994305E+000	0.0000000E+000	0.0000000E+000	0.0000000E+000	5.1994305E+000	1.0989361E+001	8.4800568E+001	8.622766696716998E-007
1.2604036E+003	7.3100639E+001	6.7970896E+000	7.3415962E+001	-5.3122382E+000	3.208467568396009E+001	4.0921257E-003	1.7975937E-003	1.8577511E+001	1.5924013E-001	1.000000000000000E+000	11	1.0718551E-002	1.4599756E-004	0	1.196232750534546E-005	1.3562514E-002	1.2610783E-003	1.3621016E-002	5.3122382E+000	1.5924020E+002	1.7125793E+003	1.7199667E+003	-8.4687759E+001	0.0000000E+000	0.0000000E+000	0.0000000E+000	8.4687759E+001	0.0000000E+000	0.0000000E+000	0.0000000E+000	-8.4687759E+001	0.0000000E+000	0.0000000E+000	0.0000000E+000	-5.3122382E+000	0.0000000E+000	0.0000000E+000	0.0000000E+000	5.3122382E+000	1.0754697E+001	8.4687759E+001	7.240709219056758E-007
1.0016024E+003	7.3893059E+001	7.0636601E+000	7.4229912E+001	-5.4604836E+000	3.378245155120385E+001	4.0978491E-003	1.6390398E-003	2.2495464E+001	2.0370266E-001	1.000000000000000E+000	11	1.0714560E-002	1.4434289E-004	0	1.265548576582862E-005	1.3410524E-002	1.2819524E-003	1.3471658E-002	5.4604836E+000	2.0370251E+002	2.1309368E+003	2.1406509E+003	-8.4539520E+001	0.0000000E+000	0.0000000E+000	0.0000000E+000	8.4539520E+001	0.0000000E+000	0.0000000E+000	0.0000000E+000	-8.4539520E+001	0.0000000E+000	0.0000000E+000	0.0000000E+000	-5.4604836E+000	0.0000000E+000	0.0000000E+000	0.0000000E+000	5.4604836E+000	1.0461016E+001	8.4539520E+001	6.931582604831622E-007
7.9525409E+002	7.4685249E+001	7.4057422E+000	7.5051529E+001	-5.6629014E+000	3.548367744540883E+001	4.0834942E-003	1.7454254E-003	2.7023750E+001	2.6312596E-001	1.000000000000000E+000	11	1.0712106E-002	1.4273002E-004	0	1.359555075190615E-005	1.3259152E-002	1.3147691E-003	1.3324179E-002	5.6629014E+000	2.6312607E+002	2.6535667E+003	2.6665806E+003	-8.4337097E+001	0.0000000E+000	0.0000000E+000	0.0000000E+000	8.4337097E+001	0.0000000E+000	0.0000000E+000	0.0000000E+000	-8.4337097E+001	0.0000000E+000	0.0000000E+000	0.0000000E+000	-5.6629014E+000	0.0000000E+000	0.0000000E+000	0.0000000E+000	5.6629014E+000	1.0084776E+001	8.4337097E+001	9.400649860775352E-007
6.3181964E+002	7.5590088E+001	7.9145784E+000	7.6003304E+001	-5.9773130E+000	3.718019528596778E+001	4.1018385E-003	1.7221362E-003	3.1827259E+001	3.4513569E-001	1.000000000000000E+000	11	1.0711133E-002	1.4092984E-004	0	1.444551374583453E-005	1.3085789E-002	1.3701334E-003	1.3157323E-002	5.9773130E+000	3.4513550E+002	3.2963015E+003	3.3143208E+003	-8.4022690E+001	0.0000000E+000	0.0000000E+000	0.0000000E+000	8.4022690E+001	0.0000000E+000	0.0000000E+000	0.0000000E+000	-8.4022690E+001	0.0000000E+000	0.0000000E+000	0.0000000E+000	-5.9773130E+000	0.0000000E+000	0.0000000E+000	0.0000000E+000	5.9773130E+000	9.5507412E+000	8.4022690E+001	8.499629939283805E-007
